# Saving coverage database on exit...
# End time: 10:32:37 on Jul 20,2026, Elapsed time: 0:00:04
# Errors: 0, Warnings: 0
# vsim -c -coverage work.apb_tb_top "+TESTNAME=RAND_ADDR_INRANGE" -onfinish final -do "run -all; coverage save -onexit RAND_ADDR_INRANGE.ucdb;" 
# Start time: 10:32:37 on Jul 20,2026
# ** Note: (vsim-8009) Loading existing optimized design _opt
# Loading sv_std.std
# Loading work.testcase_pkg(fast)
# Loading work.testbench_sv_unit(fast)
# Loading work.apb_tb_top(fast)
# Loading work.apb_test(fast)
# Loading work.apb_checker(fast)
# Loading work.apb_if(fast)
# run -all
# [TEST] TESTNAME=RAND_ADDR_INRANGE TIMEOUT=2000
# [0] TRANS | WRITE | PSELx=10 | PSTRB=1010 |PADDR=0x80000020 | PWDATA=0x21 | PRDATA=0x0
# [0] TRANS | READ  | PSELx=01 | PSTRB=0000 |PADDR=0x4 | PWDATA=0x0 | PRDATA=0x0
# [0] TRANS | READ  | PSELx=10 | PSTRB=0000 |PADDR=0x80000020 | PWDATA=0x0 | PRDATA=0x0
# [0] TRANS | READ  | PSELx=01 | PSTRB=0000 |PADDR=0x10 | PWDATA=0x0 | PRDATA=0x0
# [0] TRANS | READ  | PSELx=01 | PSTRB=0000 |PADDR=0x10 | PWDATA=0x0 | PRDATA=0x0
# [0] TRANS | READ  | PSELx=10 | PSTRB=0000 |PADDR=0x80000004 | PWDATA=0x0 | PRDATA=0x0
# [0] TRANS | WRITE | PSELx=01 | PSTRB=0110 |PADDR=0x4 | PWDATA=0xf | PRDATA=0x0
# [0] TRANS | WRITE | PSELx=01 | PSTRB=0111 |PADDR=0x4 | PWDATA=0x77 | PRDATA=0x0
# [0] TRANS | WRITE | PSELx=01 | PSTRB=0111 |PADDR=0x10 | PWDATA=0x99 | PRDATA=0x0
# [0] TRANS | WRITE | PSELx=10 | PSTRB=0010 |PADDR=0x80000004 | PWDATA=0x53 | PRDATA=0x0
# [0] TRANS | WRITE | PSELx=01 | PSTRB=0011 |PADDR=0x10 | PWDATA=0x60 | PRDATA=0x0
# [0] TRANS | READ  | PSELx=01 | PSTRB=0000 |PADDR=0x10 | PWDATA=0x0 | PRDATA=0x0
# [0] TRANS | READ  | PSELx=10 | PSTRB=0000 |PADDR=0x80000004 | PWDATA=0x0 | PRDATA=0x0
# [0] TRANS | READ  | PSELx=01 | PSTRB=0000 |PADDR=0x10 | PWDATA=0x0 | PRDATA=0x0
# [0] TRANS | WRITE | PSELx=01 | PSTRB=0101 |PADDR=0x10 | PWDATA=0xf3 | PRDATA=0x0
# [0] TRANS | WRITE | PSELx=10 | PSTRB=1001 |PADDR=0x80000020 | PWDATA=0xef | PRDATA=0x0
# [0] TRANS | READ  | PSELx=01 | PSTRB=0000 |PADDR=0x10 | PWDATA=0x0 | PRDATA=0x0
# [0] TRANS | WRITE | PSELx=01 | PSTRB=1110 |PADDR=0x4 | PWDATA=0xc5 | PRDATA=0x0
# [0] TRANS | READ  | PSELx=10 | PSTRB=0000 |PADDR=0x80000004 | PWDATA=0x0 | PRDATA=0x0
# [0] TRANS | READ  | PSELx=10 | PSTRB=0000 |PADDR=0x80000020 | PWDATA=0x0 | PRDATA=0x0
# [0] TRANS | WRITE | PSELx=01 | PSTRB=0011 |PADDR=0x4 | PWDATA=0xae | PRDATA=0x0
# [0] TRANS | WRITE | PSELx=10 | PSTRB=0010 |PADDR=0x80000004 | PWDATA=0x14 | PRDATA=0x0
# [0] TRANS | READ  | PSELx=10 | PSTRB=0000 |PADDR=0x80000004 | PWDATA=0x0 | PRDATA=0x0
# [0] TRANS | READ  | PSELx=10 | PSTRB=0000 |PADDR=0x80000004 | PWDATA=0x0 | PRDATA=0x0
# [0] TRANS | READ  | PSELx=01 | PSTRB=0000 |PADDR=0x4 | PWDATA=0x0 | PRDATA=0x0
# [0] TRANS | READ  | PSELx=01 | PSTRB=0000 |PADDR=0x4 | PWDATA=0x0 | PRDATA=0x0
# [0] TRANS | WRITE | PSELx=10 | PSTRB=1111 |PADDR=0x80000020 | PWDATA=0x74 | PRDATA=0x0
# [0] TRANS | READ  | PSELx=01 | PSTRB=0000 |PADDR=0x8 | PWDATA=0x0 | PRDATA=0x0
# [0] TRANS | READ  | PSELx=01 | PSTRB=0000 |PADDR=0x4 | PWDATA=0x0 | PRDATA=0x0
# [0] TRANS | WRITE | PSELx=01 | PSTRB=1011 |PADDR=0x10 | PWDATA=0x11 | PRDATA=0x0
# [235000][MON-SETUP] PADDR=0x80000020 W=1 PSELx=10
# [PASS] PREADY access phase OK
# [PASS] Valid address response OK
# [PASS] PENABLE protocol OK
# [PASS] VALID APB RESPONSE
# [COVER] Successful APB transfer observed
# [245000] DRV | WRITE | PSELx=10 | PSTRB=1010 |PADDR=0x80000020 | PWDATA=0x21 | PRDATA=0x0
# [245000][WRITE][MON-ACCESS] PADDR=0x80000020 PSELx=10 PWDATA=0x21
# [245000][SB-WRITE][S1] ADDR=0x80000020 IDX=8 DATA=0x21
# [265000][MON-SETUP] PADDR=0x4 W=0 PSELx=01
# [PASS] PREADY access phase OK
# [PASS] Valid address response OK
# [PASS] PENABLE protocol OK
# [PASS] VALID APB RESPONSE
# [COVER] Successful APB transfer observed
# [275000] DRV | READ  | PSELx=01 | PSTRB=0000 |PADDR=0x4 | PWDATA=0x0 | PRDATA=0x0
# [275000][READ][MON-ACCESS] PADDR=0x4 PSELx=01 PRDATA=0x0
# [275000][SB-PASS] PSELx=01 ADDR=0x4 IDX=1 EXP=0x0 ACT=0x0
# [295000][MON-SETUP] PADDR=0x80000020 W=0 PSELx=10
# [PASS] PREADY access phase OK
# [PASS] Valid address response OK
# [PASS] PENABLE protocol OK
# [PASS] VALID APB RESPONSE
# [COVER] Successful APB transfer observed
# [305000] DRV | READ  | PSELx=10 | PSTRB=0000 |PADDR=0x80000020 | PWDATA=0x0 | PRDATA=0x0
# [305000][READ][MON-ACCESS] PADDR=0x80000020 PSELx=10 PRDATA=0x0
# [305000][SB-PASS] PSELx=10 ADDR=0x80000020 IDX=8 EXP=0x0 ACT=0x0
# [325000][MON-SETUP] PADDR=0x10 W=0 PSELx=01
# [PASS] PREADY access phase OK
# [PASS] Valid address response OK
# [PASS] PENABLE protocol OK
# [PASS] VALID APB RESPONSE
# [COVER] Successful APB transfer observed
# [335000] DRV | READ  | PSELx=01 | PSTRB=0000 |PADDR=0x10 | PWDATA=0x0 | PRDATA=0x0
# [335000][READ][MON-ACCESS] PADDR=0x10 PSELx=01 PRDATA=0x0
# [335000][SB-PASS] PSELx=01 ADDR=0x10 IDX=4 EXP=0x0 ACT=0x0
# [355000][MON-SETUP] PADDR=0x10 W=0 PSELx=01
# [PASS] PREADY access phase OK
# [PASS] Valid address response OK
# [PASS] PENABLE protocol OK
# [PASS] VALID APB RESPONSE
# [COVER] Successful APB transfer observed
# [365000] DRV | READ  | PSELx=01 | PSTRB=0000 |PADDR=0x10 | PWDATA=0x0 | PRDATA=0x0
# [365000][READ][MON-ACCESS] PADDR=0x10 PSELx=01 PRDATA=0x0
# [365000][SB-PASS] PSELx=01 ADDR=0x10 IDX=4 EXP=0x0 ACT=0x0
# [385000][MON-SETUP] PADDR=0x80000004 W=0 PSELx=10
# [PASS] PREADY access phase OK
# [PASS] Valid address response OK
# [PASS] PENABLE protocol OK
# [PASS] VALID APB RESPONSE
# [COVER] Successful APB transfer observed
# [395000] DRV | READ  | PSELx=10 | PSTRB=0000 |PADDR=0x80000004 | PWDATA=0x0 | PRDATA=0x0
# [395000][READ][MON-ACCESS] PADDR=0x80000004 PSELx=10 PRDATA=0x0
# [395000][SB-PASS] PSELx=10 ADDR=0x80000004 IDX=1 EXP=0x0 ACT=0x0
# [415000][MON-SETUP] PADDR=0x4 W=1 PSELx=01
# [PASS] PREADY access phase OK
# [PASS] Valid address response OK
# [PASS] PENABLE protocol OK
# [PASS] VALID APB RESPONSE
# [COVER] Successful APB transfer observed
# [425000] DRV | WRITE | PSELx=01 | PSTRB=0110 |PADDR=0x4 | PWDATA=0xf | PRDATA=0x0
# [425000][WRITE][MON-ACCESS] PADDR=0x4 PSELx=01 PWDATA=0xf
# [425000][SB-WRITE][S0] ADDR=0x4 IDX=1 DATA=0xf
# [445000][MON-SETUP] PADDR=0x4 W=1 PSELx=01
# [PASS] PREADY access phase OK
# [PASS] Valid address response OK
# [PASS] PENABLE protocol OK
# [PASS] VALID APB RESPONSE
# [COVER] Successful APB transfer observed
# [455000] DRV | WRITE | PSELx=01 | PSTRB=0111 |PADDR=0x4 | PWDATA=0x77 | PRDATA=0x0
# [455000][WRITE][MON-ACCESS] PADDR=0x4 PSELx=01 PWDATA=0x77
# [455000][SB-WRITE][S0] ADDR=0x4 IDX=1 DATA=0x77
# [475000][MON-SETUP] PADDR=0x10 W=1 PSELx=01
# [PASS] PREADY access phase OK
# [PASS] Valid address response OK
# [PASS] PENABLE protocol OK
# [PASS] VALID APB RESPONSE
# [COVER] Successful APB transfer observed
# [485000] DRV | WRITE | PSELx=01 | PSTRB=0111 |PADDR=0x10 | PWDATA=0x99 | PRDATA=0x0
# [485000][WRITE][MON-ACCESS] PADDR=0x10 PSELx=01 PWDATA=0x99
# [485000][SB-WRITE][S0] ADDR=0x10 IDX=4 DATA=0x99
# [505000][MON-SETUP] PADDR=0x80000004 W=1 PSELx=10
# [PASS] PREADY access phase OK
# [PASS] Valid address response OK
# [PASS] PENABLE protocol OK
# [PASS] VALID APB RESPONSE
# [COVER] Successful APB transfer observed
# [515000] DRV | WRITE | PSELx=10 | PSTRB=0010 |PADDR=0x80000004 | PWDATA=0x53 | PRDATA=0x0
# [515000][WRITE][MON-ACCESS] PADDR=0x80000004 PSELx=10 PWDATA=0x53
# [515000][SB-WRITE][S1] ADDR=0x80000004 IDX=1 DATA=0x53
# [535000][MON-SETUP] PADDR=0x10 W=1 PSELx=01
# [PASS] PREADY access phase OK
# [PASS] Valid address response OK
# [PASS] PENABLE protocol OK
# [PASS] VALID APB RESPONSE
# [COVER] Successful APB transfer observed
# [545000] DRV | WRITE | PSELx=01 | PSTRB=0011 |PADDR=0x10 | PWDATA=0x60 | PRDATA=0x0
# [545000][WRITE][MON-ACCESS] PADDR=0x10 PSELx=01 PWDATA=0x60
# [545000][SB-WRITE][S0] ADDR=0x10 IDX=4 DATA=0x60
# [565000][MON-SETUP] PADDR=0x10 W=0 PSELx=01
# [PASS] PREADY access phase OK
# [PASS] Valid address response OK
# [PASS] PENABLE protocol OK
# [PASS] VALID APB RESPONSE
# [COVER] Successful APB transfer observed
# [575000] DRV | READ  | PSELx=01 | PSTRB=0000 |PADDR=0x10 | PWDATA=0x0 | PRDATA=0x60
# [575000][READ][MON-ACCESS] PADDR=0x10 PSELx=01 PRDATA=0x60
# [575000][SB-PASS] PSELx=01 ADDR=0x10 IDX=4 EXP=0x60 ACT=0x60
# [595000][MON-SETUP] PADDR=0x80000004 W=0 PSELx=10
# [PASS] PREADY access phase OK
# [PASS] Valid address response OK
# [PASS] PENABLE protocol OK
# [PASS] VALID APB RESPONSE
# [COVER] Successful APB transfer observed
# [605000] DRV | READ  | PSELx=10 | PSTRB=0000 |PADDR=0x80000004 | PWDATA=0x0 | PRDATA=0x0
# [605000][READ][MON-ACCESS] PADDR=0x80000004 PSELx=10 PRDATA=0x0
# [605000][SB-PASS] PSELx=10 ADDR=0x80000004 IDX=1 EXP=0x0 ACT=0x0
# [625000][MON-SETUP] PADDR=0x10 W=0 PSELx=01
# [PASS] PREADY access phase OK
# [PASS] Valid address response OK
# [PASS] PENABLE protocol OK
# [PASS] VALID APB RESPONSE
# [COVER] Successful APB transfer observed
# [635000] DRV | READ  | PSELx=01 | PSTRB=0000 |PADDR=0x10 | PWDATA=0x0 | PRDATA=0x60
# [635000][READ][MON-ACCESS] PADDR=0x10 PSELx=01 PRDATA=0x60
# [635000][SB-PASS] PSELx=01 ADDR=0x10 IDX=4 EXP=0x60 ACT=0x60
# [655000][MON-SETUP] PADDR=0x10 W=1 PSELx=01
# [PASS] PREADY access phase OK
# [PASS] Valid address response OK
# [PASS] PENABLE protocol OK
# [PASS] VALID APB RESPONSE
# [COVER] Successful APB transfer observed
# [665000] DRV | WRITE | PSELx=01 | PSTRB=0101 |PADDR=0x10 | PWDATA=0xf3 | PRDATA=0x0
# [665000][WRITE][MON-ACCESS] PADDR=0x10 PSELx=01 PWDATA=0xf3
# [665000][SB-WRITE][S0] ADDR=0x10 IDX=4 DATA=0xf3
# [685000][MON-SETUP] PADDR=0x80000020 W=1 PSELx=10
# [PASS] PREADY access phase OK
# [PASS] Valid address response OK
# [PASS] PENABLE protocol OK
# [PASS] VALID APB RESPONSE
# [COVER] Successful APB transfer observed
# [695000] DRV | WRITE | PSELx=10 | PSTRB=1001 |PADDR=0x80000020 | PWDATA=0xef | PRDATA=0x0
# [695000][WRITE][MON-ACCESS] PADDR=0x80000020 PSELx=10 PWDATA=0xef
# [695000][SB-WRITE][S1] ADDR=0x80000020 IDX=8 DATA=0xef
# [715000][MON-SETUP] PADDR=0x10 W=0 PSELx=01
# [PASS] PREADY access phase OK
# [PASS] Valid address response OK
# [PASS] PENABLE protocol OK
# [PASS] VALID APB RESPONSE
# [COVER] Successful APB transfer observed
# [725000] DRV | READ  | PSELx=01 | PSTRB=0000 |PADDR=0x10 | PWDATA=0x0 | PRDATA=0xf3
# [725000][READ][MON-ACCESS] PADDR=0x10 PSELx=01 PRDATA=0xf3
# [725000][SB-PASS] PSELx=01 ADDR=0x10 IDX=4 EXP=0xf3 ACT=0xf3
# [745000][MON-SETUP] PADDR=0x4 W=1 PSELx=01
# [PASS] PREADY access phase OK
# [PASS] Valid address response OK
# [PASS] PENABLE protocol OK
# [PASS] VALID APB RESPONSE
# [COVER] Successful APB transfer observed
# [755000] DRV | WRITE | PSELx=01 | PSTRB=1110 |PADDR=0x4 | PWDATA=0xc5 | PRDATA=0x0
# [755000][WRITE][MON-ACCESS] PADDR=0x4 PSELx=01 PWDATA=0xc5
# [755000][SB-WRITE][S0] ADDR=0x4 IDX=1 DATA=0xc5
# [775000][MON-SETUP] PADDR=0x80000004 W=0 PSELx=10
# [PASS] PREADY access phase OK
# [PASS] Valid address response OK
# [PASS] PENABLE protocol OK
# [PASS] VALID APB RESPONSE
# [COVER] Successful APB transfer observed
# [785000] DRV | READ  | PSELx=10 | PSTRB=0000 |PADDR=0x80000004 | PWDATA=0x0 | PRDATA=0x0
# [785000][READ][MON-ACCESS] PADDR=0x80000004 PSELx=10 PRDATA=0x0
# [785000][SB-PASS] PSELx=10 ADDR=0x80000004 IDX=1 EXP=0x0 ACT=0x0
# [805000][MON-SETUP] PADDR=0x80000020 W=0 PSELx=10
# [PASS] PREADY access phase OK
# [PASS] Valid address response OK
# [PASS] PENABLE protocol OK
# [PASS] VALID APB RESPONSE
# [COVER] Successful APB transfer observed
# [815000] DRV | READ  | PSELx=10 | PSTRB=0000 |PADDR=0x80000020 | PWDATA=0x0 | PRDATA=0xef
# [815000][READ][MON-ACCESS] PADDR=0x80000020 PSELx=10 PRDATA=0xef
# [815000][SB-PASS] PSELx=10 ADDR=0x80000020 IDX=8 EXP=0xef ACT=0xef
# [835000][MON-SETUP] PADDR=0x4 W=1 PSELx=01
# [PASS] PREADY access phase OK
# [PASS] Valid address response OK
# [PASS] PENABLE protocol OK
# [PASS] VALID APB RESPONSE
# [COVER] Successful APB transfer observed
# [845000] DRV | WRITE | PSELx=01 | PSTRB=0011 |PADDR=0x4 | PWDATA=0xae | PRDATA=0x0
# [845000][WRITE][MON-ACCESS] PADDR=0x4 PSELx=01 PWDATA=0xae
# [845000][SB-WRITE][S0] ADDR=0x4 IDX=1 DATA=0xae
# [865000][MON-SETUP] PADDR=0x80000004 W=1 PSELx=10
# [PASS] PREADY access phase OK
# [PASS] Valid address response OK
# [PASS] PENABLE protocol OK
# [PASS] VALID APB RESPONSE
# [COVER] Successful APB transfer observed
# [875000] DRV | WRITE | PSELx=10 | PSTRB=0010 |PADDR=0x80000004 | PWDATA=0x14 | PRDATA=0x0
# [875000][WRITE][MON-ACCESS] PADDR=0x80000004 PSELx=10 PWDATA=0x14
# [875000][SB-WRITE][S1] ADDR=0x80000004 IDX=1 DATA=0x14
# [895000][MON-SETUP] PADDR=0x80000004 W=0 PSELx=10
# [PASS] PREADY access phase OK
# [PASS] Valid address response OK
# [PASS] PENABLE protocol OK
# [PASS] VALID APB RESPONSE
# [COVER] Successful APB transfer observed
# [905000] DRV | READ  | PSELx=10 | PSTRB=0000 |PADDR=0x80000004 | PWDATA=0x0 | PRDATA=0x0
# [905000][READ][MON-ACCESS] PADDR=0x80000004 PSELx=10 PRDATA=0x0
# [905000][SB-PASS] PSELx=10 ADDR=0x80000004 IDX=1 EXP=0x0 ACT=0x0
# [925000][MON-SETUP] PADDR=0x80000004 W=0 PSELx=10
# [PASS] PREADY access phase OK
# [PASS] Valid address response OK
# [PASS] PENABLE protocol OK
# [PASS] VALID APB RESPONSE
# [COVER] Successful APB transfer observed
# [935000] DRV | READ  | PSELx=10 | PSTRB=0000 |PADDR=0x80000004 | PWDATA=0x0 | PRDATA=0x0
# [935000][READ][MON-ACCESS] PADDR=0x80000004 PSELx=10 PRDATA=0x0
# [935000][SB-PASS] PSELx=10 ADDR=0x80000004 IDX=1 EXP=0x0 ACT=0x0
# [955000][MON-SETUP] PADDR=0x4 W=0 PSELx=01
# [PASS] PREADY access phase OK
# [PASS] Valid address response OK
# [PASS] PENABLE protocol OK
# [PASS] VALID APB RESPONSE
# [COVER] Successful APB transfer observed
# [965000] DRV | READ  | PSELx=01 | PSTRB=0000 |PADDR=0x4 | PWDATA=0x0 | PRDATA=0xae
# [965000][READ][MON-ACCESS] PADDR=0x4 PSELx=01 PRDATA=0xae
# [965000][SB-PASS] PSELx=01 ADDR=0x4 IDX=1 EXP=0xae ACT=0xae
# [985000][MON-SETUP] PADDR=0x4 W=0 PSELx=01
# [PASS] PREADY access phase OK
# [PASS] Valid address response OK
# [PASS] PENABLE protocol OK
# [PASS] VALID APB RESPONSE
# [COVER] Successful APB transfer observed
# [995000] DRV | READ  | PSELx=01 | PSTRB=0000 |PADDR=0x4 | PWDATA=0x0 | PRDATA=0xae
# [995000][READ][MON-ACCESS] PADDR=0x4 PSELx=01 PRDATA=0xae
# [995000][SB-PASS] PSELx=01 ADDR=0x4 IDX=1 EXP=0xae ACT=0xae
# [1015000][MON-SETUP] PADDR=0x80000020 W=1 PSELx=10
# [PASS] PREADY access phase OK
# [PASS] Valid address response OK
# [PASS] PENABLE protocol OK
# [PASS] VALID APB RESPONSE
# [COVER] Successful APB transfer observed
# [1025000] DRV | WRITE | PSELx=10 | PSTRB=1111 |PADDR=0x80000020 | PWDATA=0x74 | PRDATA=0x0
# [1025000][WRITE][MON-ACCESS] PADDR=0x80000020 PSELx=10 PWDATA=0x74
# [1025000][SB-WRITE][S1] ADDR=0x80000020 IDX=8 DATA=0x74
# [1045000][MON-SETUP] PADDR=0x8 W=0 PSELx=01
# [PASS] PREADY access phase OK
# [PASS] Valid address response OK
# [PASS] PENABLE protocol OK
# [PASS] VALID APB RESPONSE
# [COVER] Successful APB transfer observed
# [1055000] DRV | READ  | PSELx=01 | PSTRB=0000 |PADDR=0x8 | PWDATA=0x0 | PRDATA=0x0
# [1055000][READ][MON-ACCESS] PADDR=0x8 PSELx=01 PRDATA=0x0
# [1055000][SB-PASS] PSELx=01 ADDR=0x8 IDX=2 EXP=0x0 ACT=0x0
# [1075000][MON-SETUP] PADDR=0x4 W=0 PSELx=01
# [PASS] PREADY access phase OK
# [PASS] Valid address response OK
# [PASS] PENABLE protocol OK
# [PASS] VALID APB RESPONSE
# [COVER] Successful APB transfer observed
# [1085000] DRV | READ  | PSELx=01 | PSTRB=0000 |PADDR=0x4 | PWDATA=0x0 | PRDATA=0xae
# [1085000][READ][MON-ACCESS] PADDR=0x4 PSELx=01 PRDATA=0xae
# [1085000][SB-PASS] PSELx=01 ADDR=0x4 IDX=1 EXP=0xae ACT=0xae
# [1105000][MON-SETUP] PADDR=0x10 W=1 PSELx=01
# [PASS] PREADY access phase OK
# [PASS] Valid address response OK
# [PASS] PENABLE protocol OK
# [PASS] VALID APB RESPONSE
# [COVER] Successful APB transfer observed
# [1115000] DRV | WRITE | PSELx=01 | PSTRB=1011 |PADDR=0x10 | PWDATA=0x11 | PRDATA=0x0
# [1115000][WRITE][MON-ACCESS] PADDR=0x10 PSELx=01 PWDATA=0x11
# [1115000][SB-WRITE][S0] ADDR=0x10 IDX=4 DATA=0x11
# [TEST] TIMEOUT reached
# 
# =============== SCOREBOARD SUMMARY ===============
#  Transactions : 30
#  Writes       : 13
#  Reads        : 17
#  Errors       : 0
#  Pass Rate    : 100.00%
#  RESULT       : PASS ✅
# Coverage APB with ADDR and SELx = 61.11 %
# Coverage APB with WRITE/READ = 100.00 %
# Coverage PSTRB = 100.00 %
# ==================================================
# 
# ** Note: $finish    : ./TB/test.sv(117)
#    Time: 2 us  Iteration: 1  Instance: /apb_tb_top/t1
# Break in Module apb_tb_top at ./TB/interface.sv line 24
#  coverage save -onexit RAND_ADDR_INRANGE.ucdb
# 
