# Saving coverage database on exit...
# End time: 10:32:33 on Jul 20,2026, Elapsed time: 0:00:07
# Errors: 0, Warnings: 0
# vsim -c -coverage work.apb_tb_top "+TESTNAME=RAND_ADDR" -onfinish final -do "run -all; coverage save -onexit RAND_ADDR.ucdb;" 
# Start time: 10:32:33 on Jul 20,2026
# ** Note: (vsim-8009) Loading existing optimized design _opt
# Loading sv_std.std
# Loading work.testcase_pkg(fast)
# Loading work.testbench_sv_unit(fast)
# Loading work.apb_tb_top(fast)
# Loading work.apb_test(fast)
# Loading work.apb_checker(fast)
# Loading work.apb_if(fast)
# run -all
# [TEST] TESTNAME=RAND_ADDR TIMEOUT=2000
# [0] TRANS | WRITE | PSELx=01 | PSTRB=1010 |PADDR=0xde | PWDATA=0x21 | PRDATA=0x0
# [0] TRANS | READ  | PSELx=01 | PSTRB=0000 |PADDR=0x2b | PWDATA=0x0 | PRDATA=0x0
# [0] TRANS | READ  | PSELx=01 | PSTRB=0000 |PADDR=0x7d | PWDATA=0x0 | PRDATA=0x0
# [0] TRANS | READ  | PSELx=01 | PSTRB=0000 |PADDR=0x32 | PWDATA=0x0 | PRDATA=0x0
# [0] TRANS | READ  | PSELx=01 | PSTRB=0000 |PADDR=0xaa | PWDATA=0x0 | PRDATA=0x0
# [0] TRANS | READ  | PSELx=01 | PSTRB=0000 |PADDR=0x2b | PWDATA=0x0 | PRDATA=0x0
# [0] TRANS | WRITE | PSELx=01 | PSTRB=0110 |PADDR=0xdd | PWDATA=0xf | PRDATA=0x0
# [0] TRANS | WRITE | PSELx=01 | PSTRB=0111 |PADDR=0x95 | PWDATA=0x77 | PRDATA=0x0
# [0] TRANS | WRITE | PSELx=01 | PSTRB=0111 |PADDR=0x62 | PWDATA=0x99 | PRDATA=0x0
# [0] TRANS | WRITE | PSELx=01 | PSTRB=0010 |PADDR=0xf7 | PWDATA=0x53 | PRDATA=0x0
# [0] TRANS | WRITE | PSELx=01 | PSTRB=0011 |PADDR=0x48 | PWDATA=0x60 | PRDATA=0x0
# [0] TRANS | READ  | PSELx=01 | PSTRB=0000 |PADDR=0x22 | PWDATA=0x0 | PRDATA=0x0
# [0] TRANS | READ  | PSELx=01 | PSTRB=0000 |PADDR=0x23 | PWDATA=0x0 | PRDATA=0x0
# [0] TRANS | READ  | PSELx=01 | PSTRB=0000 |PADDR=0xe3 | PWDATA=0x0 | PRDATA=0x0
# [0] TRANS | WRITE | PSELx=01 | PSTRB=0101 |PADDR=0xe9 | PWDATA=0xf3 | PRDATA=0x0
# [0] TRANS | WRITE | PSELx=01 | PSTRB=1001 |PADDR=0x34 | PWDATA=0xef | PRDATA=0x0
# [0] TRANS | READ  | PSELx=01 | PSTRB=0000 |PADDR=0x24 | PWDATA=0x0 | PRDATA=0x0
# [0] TRANS | WRITE | PSELx=01 | PSTRB=1110 |PADDR=0xcb | PWDATA=0xc5 | PRDATA=0x0
# [0] TRANS | READ  | PSELx=01 | PSTRB=0000 |PADDR=0xb | PWDATA=0x0 | PRDATA=0x0
# [0] TRANS | READ  | PSELx=01 | PSTRB=0000 |PADDR=0x5e | PWDATA=0x0 | PRDATA=0x0
# [0] TRANS | WRITE | PSELx=01 | PSTRB=0011 |PADDR=0xd8 | PWDATA=0xae | PRDATA=0x0
# [0] TRANS | WRITE | PSELx=01 | PSTRB=0010 |PADDR=0x4d | PWDATA=0x14 | PRDATA=0x0
# [0] TRANS | READ  | PSELx=01 | PSTRB=0000 |PADDR=0xfe | PWDATA=0x0 | PRDATA=0x0
# [0] TRANS | READ  | PSELx=01 | PSTRB=0000 |PADDR=0xf5 | PWDATA=0x0 | PRDATA=0x0
# [0] TRANS | READ  | PSELx=01 | PSTRB=0000 |PADDR=0xa0 | PWDATA=0x0 | PRDATA=0x0
# [0] TRANS | READ  | PSELx=01 | PSTRB=0000 |PADDR=0x38 | PWDATA=0x0 | PRDATA=0x0
# [0] TRANS | WRITE | PSELx=01 | PSTRB=1111 |PADDR=0xaf | PWDATA=0x74 | PRDATA=0x0
# [0] TRANS | READ  | PSELx=01 | PSTRB=0000 |PADDR=0xe0 | PWDATA=0x0 | PRDATA=0x0
# [0] TRANS | READ  | PSELx=01 | PSTRB=0000 |PADDR=0x71 | PWDATA=0x0 | PRDATA=0x0
# [0] TRANS | WRITE | PSELx=01 | PSTRB=1011 |PADDR=0x45 | PWDATA=0x11 | PRDATA=0x0
# [235000][MON-SETUP] PADDR=0xde W=1 PSELx=01
# [PASS] PENABLE protocol OK
# [PASS] PREADY access phase OK
# [PASS] Valid address response OK
# [COVER] Successful APB transfer observed
# [PASS] VALID APB RESPONSE
# [265000] DRV | WRITE | PSELx=01 | PSTRB=1010 |PADDR=0xde | PWDATA=0x21 | PRDATA=0x0
# [265000][WRITE][MON-ACCESS] PADDR=0xde PSELx=01 PWDATA=0x21
# [265000][SB-WRITE][S0] ADDR=0xde IDX=55 DATA=0x21
# [285000][MON-SETUP] PADDR=0x2b W=0 PSELx=01
# [PASS] PENABLE protocol OK
# [PASS] PREADY access phase OK
# [PASS] Valid address response OK
# [COVER] Successful APB transfer observed
# [PASS] VALID APB RESPONSE
# [325000] DRV | READ  | PSELx=01 | PSTRB=0000 |PADDR=0x2b | PWDATA=0x0 | PRDATA=0x0
# [325000][READ][MON-ACCESS] PADDR=0x2b PSELx=01 PRDATA=0x0
# [325000][SB-PASS] PSELx=01 ADDR=0x2b IDX=10 EXP=0x0 ACT=0x0
# [345000][MON-SETUP] PADDR=0x7d W=0 PSELx=01
# [PASS] PENABLE protocol OK
# [PASS] Valid address response OK
# [COVER] Successful APB transfer observed
# [PASS] PREADY access phase OK
# [PASS] VALID APB RESPONSE
# [365000] DRV | READ  | PSELx=01 | PSTRB=0000 |PADDR=0x7d | PWDATA=0x0 | PRDATA=0x0
# [365000][READ][MON-ACCESS] PADDR=0x7d PSELx=01 PRDATA=0x0
# [365000][SB-PASS] PSELx=01 ADDR=0x7d IDX=31 EXP=0x0 ACT=0x0
# [385000][MON-SETUP] PADDR=0x32 W=0 PSELx=01
# [PASS] PENABLE protocol OK
# [PASS] PREADY access phase OK
# [PASS] Valid address response OK
# [COVER] Successful APB transfer observed
# [PASS] VALID APB RESPONSE
# [415000] DRV | READ  | PSELx=01 | PSTRB=0000 |PADDR=0x32 | PWDATA=0x0 | PRDATA=0x0
# [415000][READ][MON-ACCESS] PADDR=0x32 PSELx=01 PRDATA=0x0
# [415000][SB-PASS] PSELx=01 ADDR=0x32 IDX=12 EXP=0x0 ACT=0x0
# [435000][MON-SETUP] PADDR=0xaa W=0 PSELx=01
# [PASS] PENABLE protocol OK
# [PASS] PREADY access phase OK
# [PASS] Valid address response OK
# [COVER] Successful APB transfer observed
# [PASS] VALID APB RESPONSE
# [465000] DRV | READ  | PSELx=01 | PSTRB=0000 |PADDR=0xaa | PWDATA=0x0 | PRDATA=0x0
# [465000][READ][MON-ACCESS] PADDR=0xaa PSELx=01 PRDATA=0x0
# [465000][SB-PASS] PSELx=01 ADDR=0xaa IDX=42 EXP=0x0 ACT=0x0
# [485000][MON-SETUP] PADDR=0x2b W=0 PSELx=01
# [PASS] PENABLE protocol OK
# [PASS] PREADY access phase OK
# [PASS] Valid address response OK
# [COVER] Successful APB transfer observed
# [PASS] VALID APB RESPONSE
# [525000] DRV | READ  | PSELx=01 | PSTRB=0000 |PADDR=0x2b | PWDATA=0x0 | PRDATA=0x0
# [525000][READ][MON-ACCESS] PADDR=0x2b PSELx=01 PRDATA=0x0
# [525000][SB-PASS] PSELx=01 ADDR=0x2b IDX=10 EXP=0x0 ACT=0x0
# [545000][MON-SETUP] PADDR=0xdd W=1 PSELx=01
# [PASS] PENABLE protocol OK
# [PASS] Valid address response OK
# [COVER] Successful APB transfer observed
# [PASS] PREADY access phase OK
# [PASS] VALID APB RESPONSE
# [565000] DRV | WRITE | PSELx=01 | PSTRB=0110 |PADDR=0xdd | PWDATA=0xf | PRDATA=0x0
# [565000][WRITE][MON-ACCESS] PADDR=0xdd PSELx=01 PWDATA=0xf
# [565000][SB-WRITE][S0] ADDR=0xdd IDX=55 DATA=0xf
# [585000][MON-SETUP] PADDR=0x95 W=1 PSELx=01
# [PASS] PENABLE protocol OK
# [PASS] Valid address response OK
# [COVER] Successful APB transfer observed
# [PASS] PREADY access phase OK
# [PASS] VALID APB RESPONSE
# [605000] DRV | WRITE | PSELx=01 | PSTRB=0111 |PADDR=0x95 | PWDATA=0x77 | PRDATA=0x0
# [605000][WRITE][MON-ACCESS] PADDR=0x95 PSELx=01 PWDATA=0x77
# [605000][SB-WRITE][S0] ADDR=0x95 IDX=37 DATA=0x77
# [625000][MON-SETUP] PADDR=0x62 W=1 PSELx=01
# [PASS] PENABLE protocol OK
# [PASS] PREADY access phase OK
# [PASS] Valid address response OK
# [COVER] Successful APB transfer observed
# [PASS] VALID APB RESPONSE
# [655000] DRV | WRITE | PSELx=01 | PSTRB=0111 |PADDR=0x62 | PWDATA=0x99 | PRDATA=0x0
# [655000][WRITE][MON-ACCESS] PADDR=0x62 PSELx=01 PWDATA=0x99
# [655000][SB-WRITE][S0] ADDR=0x62 IDX=24 DATA=0x99
# [675000][MON-SETUP] PADDR=0xf7 W=1 PSELx=01
# [PASS] PENABLE protocol OK
# [PASS] PREADY access phase OK
# [PASS] Valid address response OK
# [COVER] Successful APB transfer observed
# [PASS] VALID APB RESPONSE
# [715000] DRV | WRITE | PSELx=01 | PSTRB=0010 |PADDR=0xf7 | PWDATA=0x53 | PRDATA=0x0
# [715000][WRITE][MON-ACCESS] PADDR=0xf7 PSELx=01 PWDATA=0x53
# [715000][SB-WRITE][S0] ADDR=0xf7 IDX=61 DATA=0x53
# [735000][MON-SETUP] PADDR=0x48 W=1 PSELx=01
# [PASS] PREADY access phase OK
# [PASS] Valid address response OK
# [PASS] PENABLE protocol OK
# [PASS] VALID APB RESPONSE
# [COVER] Successful APB transfer observed
# [745000] DRV | WRITE | PSELx=01 | PSTRB=0011 |PADDR=0x48 | PWDATA=0x60 | PRDATA=0x0
# [745000][WRITE][MON-ACCESS] PADDR=0x48 PSELx=01 PWDATA=0x60
# [745000][SB-WRITE][S0] ADDR=0x48 IDX=18 DATA=0x60
# [765000][MON-SETUP] PADDR=0x22 W=0 PSELx=01
# [PASS] PENABLE protocol OK
# [PASS] PREADY access phase OK
# [PASS] Valid address response OK
# [COVER] Successful APB transfer observed
# [PASS] VALID APB RESPONSE
# [795000] DRV | READ  | PSELx=01 | PSTRB=0000 |PADDR=0x22 | PWDATA=0x0 | PRDATA=0x0
# [795000][READ][MON-ACCESS] PADDR=0x22 PSELx=01 PRDATA=0x0
# [795000][SB-PASS] PSELx=01 ADDR=0x22 IDX=8 EXP=0x0 ACT=0x0
# [815000][MON-SETUP] PADDR=0x23 W=0 PSELx=01
# [PASS] PENABLE protocol OK
# [PASS] PREADY access phase OK
# [PASS] Valid address response OK
# [COVER] Successful APB transfer observed
# [PASS] VALID APB RESPONSE
# [855000] DRV | READ  | PSELx=01 | PSTRB=0000 |PADDR=0x23 | PWDATA=0x0 | PRDATA=0x0
# [855000][READ][MON-ACCESS] PADDR=0x23 PSELx=01 PRDATA=0x0
# [855000][SB-PASS] PSELx=01 ADDR=0x23 IDX=8 EXP=0x0 ACT=0x0
# [875000][MON-SETUP] PADDR=0xe3 W=0 PSELx=01
# [PASS] PENABLE protocol OK
# [PASS] PREADY access phase OK
# [PASS] Valid address response OK
# [COVER] Successful APB transfer observed
# [PASS] VALID APB RESPONSE
# [915000] DRV | READ  | PSELx=01 | PSTRB=0000 |PADDR=0xe3 | PWDATA=0x0 | PRDATA=0x0
# [915000][READ][MON-ACCESS] PADDR=0xe3 PSELx=01 PRDATA=0x0
# [915000][SB-PASS] PSELx=01 ADDR=0xe3 IDX=56 EXP=0x0 ACT=0x0
# [935000][MON-SETUP] PADDR=0xe9 W=1 PSELx=01
# [PASS] PENABLE protocol OK
# [PASS] Valid address response OK
# [COVER] Successful APB transfer observed
# [PASS] PREADY access phase OK
# [PASS] VALID APB RESPONSE
# [955000] DRV | WRITE | PSELx=01 | PSTRB=0101 |PADDR=0xe9 | PWDATA=0xf3 | PRDATA=0x0
# [955000][WRITE][MON-ACCESS] PADDR=0xe9 PSELx=01 PWDATA=0xf3
# [955000][SB-WRITE][S0] ADDR=0xe9 IDX=58 DATA=0xf3
# [975000][MON-SETUP] PADDR=0x34 W=1 PSELx=01
# [PASS] PREADY access phase OK
# [PASS] Valid address response OK
# [PASS] PENABLE protocol OK
# [PASS] VALID APB RESPONSE
# [COVER] Successful APB transfer observed
# [985000] DRV | WRITE | PSELx=01 | PSTRB=1001 |PADDR=0x34 | PWDATA=0xef | PRDATA=0x0
# [985000][WRITE][MON-ACCESS] PADDR=0x34 PSELx=01 PWDATA=0xef
# [985000][SB-WRITE][S0] ADDR=0x34 IDX=13 DATA=0xef
# [1005000][MON-SETUP] PADDR=0x24 W=0 PSELx=01
# [PASS] PREADY access phase OK
# [PASS] Valid address response OK
# [PASS] PENABLE protocol OK
# [PASS] VALID APB RESPONSE
# [COVER] Successful APB transfer observed
# [1015000] DRV | READ  | PSELx=01 | PSTRB=0000 |PADDR=0x24 | PWDATA=0x0 | PRDATA=0x0
# [1015000][READ][MON-ACCESS] PADDR=0x24 PSELx=01 PRDATA=0x0
# [1015000][SB-PASS] PSELx=01 ADDR=0x24 IDX=9 EXP=0x0 ACT=0x0
# [1035000][MON-SETUP] PADDR=0xcb W=1 PSELx=01
# [PASS] PENABLE protocol OK
# [PASS] PREADY access phase OK
# [PASS] Valid address response OK
# [COVER] Successful APB transfer observed
# [PASS] VALID APB RESPONSE
# [1075000] DRV | WRITE | PSELx=01 | PSTRB=1110 |PADDR=0xcb | PWDATA=0xc5 | PRDATA=0x0
# [1075000][WRITE][MON-ACCESS] PADDR=0xcb PSELx=01 PWDATA=0xc5
# [1075000][SB-WRITE][S0] ADDR=0xcb IDX=50 DATA=0xc5
# [1095000][MON-SETUP] PADDR=0xb W=0 PSELx=01
# [PASS] PENABLE protocol OK
# [PASS] PREADY access phase OK
# [PASS] Valid address response OK
# [COVER] Successful APB transfer observed
# [PASS] VALID APB RESPONSE
# [1135000] DRV | READ  | PSELx=01 | PSTRB=0000 |PADDR=0xb | PWDATA=0x0 | PRDATA=0x0
# [1135000][READ][MON-ACCESS] PADDR=0xb PSELx=01 PRDATA=0x0
# [1135000][SB-PASS] PSELx=01 ADDR=0xb IDX=2 EXP=0x0 ACT=0x0
# [1155000][MON-SETUP] PADDR=0x5e W=0 PSELx=01
# [PASS] PENABLE protocol OK
# [PASS] PREADY access phase OK
# [PASS] Valid address response OK
# [COVER] Successful APB transfer observed
# [PASS] VALID APB RESPONSE
# [1185000] DRV | READ  | PSELx=01 | PSTRB=0000 |PADDR=0x5e | PWDATA=0x0 | PRDATA=0x0
# [1185000][READ][MON-ACCESS] PADDR=0x5e PSELx=01 PRDATA=0x0
# [1185000][SB-PASS] PSELx=01 ADDR=0x5e IDX=23 EXP=0x0 ACT=0x0
# [1205000][MON-SETUP] PADDR=0xd8 W=1 PSELx=01
# [PASS] PREADY access phase OK
# [PASS] Valid address response OK
# [PASS] PENABLE protocol OK
# [PASS] VALID APB RESPONSE
# [COVER] Successful APB transfer observed
# [1215000] DRV | WRITE | PSELx=01 | PSTRB=0011 |PADDR=0xd8 | PWDATA=0xae | PRDATA=0x0
# [1215000][WRITE][MON-ACCESS] PADDR=0xd8 PSELx=01 PWDATA=0xae
# [1215000][SB-WRITE][S0] ADDR=0xd8 IDX=54 DATA=0xae
# [1235000][MON-SETUP] PADDR=0x4d W=1 PSELx=01
# [PASS] PENABLE protocol OK
# [PASS] Valid address response OK
# [COVER] Successful APB transfer observed
# [PASS] PREADY access phase OK
# [PASS] VALID APB RESPONSE
# [1255000] DRV | WRITE | PSELx=01 | PSTRB=0010 |PADDR=0x4d | PWDATA=0x14 | PRDATA=0x0
# [1255000][WRITE][MON-ACCESS] PADDR=0x4d PSELx=01 PWDATA=0x14
# [1255000][SB-WRITE][S0] ADDR=0x4d IDX=19 DATA=0x14
# [1275000][MON-SETUP] PADDR=0xfe W=0 PSELx=01
# [PASS] PENABLE protocol OK
# [PASS] PREADY access phase OK
# [PASS] Valid address response OK
# [COVER] Successful APB transfer observed
# [PASS] VALID APB RESPONSE
# [1305000] DRV | READ  | PSELx=01 | PSTRB=0000 |PADDR=0xfe | PWDATA=0x0 | PRDATA=0x0
# [1305000][READ][MON-ACCESS] PADDR=0xfe PSELx=01 PRDATA=0x0
# [1305000][SB-PASS] PSELx=01 ADDR=0xfe IDX=63 EXP=0x0 ACT=0x0
# [1325000][MON-SETUP] PADDR=0xf5 W=0 PSELx=01
# [PASS] PENABLE protocol OK
# [PASS] Valid address response OK
# [COVER] Successful APB transfer observed
# [PASS] PREADY access phase OK
# [PASS] VALID APB RESPONSE
# [1345000] DRV | READ  | PSELx=01 | PSTRB=0000 |PADDR=0xf5 | PWDATA=0x0 | PRDATA=0x0
# [1345000][READ][MON-ACCESS] PADDR=0xf5 PSELx=01 PRDATA=0x0
# [1345000][SB-PASS] PSELx=01 ADDR=0xf5 IDX=61 EXP=0x0 ACT=0x0
# [1365000][MON-SETUP] PADDR=0xa0 W=0 PSELx=01
# [PASS] PREADY access phase OK
# [PASS] Valid address response OK
# [PASS] PENABLE protocol OK
# [PASS] VALID APB RESPONSE
# [COVER] Successful APB transfer observed
# [1375000] DRV | READ  | PSELx=01 | PSTRB=0000 |PADDR=0xa0 | PWDATA=0x0 | PRDATA=0x0
# [1375000][READ][MON-ACCESS] PADDR=0xa0 PSELx=01 PRDATA=0x0
# [1375000][SB-PASS] PSELx=01 ADDR=0xa0 IDX=40 EXP=0x0 ACT=0x0
# [1395000][MON-SETUP] PADDR=0x38 W=0 PSELx=01
# [PASS] PREADY access phase OK
# [PASS] Valid address response OK
# [PASS] PENABLE protocol OK
# [PASS] VALID APB RESPONSE
# [COVER] Successful APB transfer observed
# [1405000] DRV | READ  | PSELx=01 | PSTRB=0000 |PADDR=0x38 | PWDATA=0x0 | PRDATA=0x0
# [1405000][READ][MON-ACCESS] PADDR=0x38 PSELx=01 PRDATA=0x0
# [1405000][SB-PASS] PSELx=01 ADDR=0x38 IDX=14 EXP=0x0 ACT=0x0
# [1425000][MON-SETUP] PADDR=0xaf W=1 PSELx=01
# [PASS] PENABLE protocol OK
# [PASS] PREADY access phase OK
# [PASS] Valid address response OK
# [COVER] Successful APB transfer observed
# [PASS] VALID APB RESPONSE
# [1465000] DRV | WRITE | PSELx=01 | PSTRB=1111 |PADDR=0xaf | PWDATA=0x74 | PRDATA=0x0
# [1465000][WRITE][MON-ACCESS] PADDR=0xaf PSELx=01 PWDATA=0x74
# [1465000][SB-WRITE][S0] ADDR=0xaf IDX=43 DATA=0x74
# [1485000][MON-SETUP] PADDR=0xe0 W=0 PSELx=01
# [PASS] PREADY access phase OK
# [PASS] Valid address response OK
# [PASS] PENABLE protocol OK
# [PASS] VALID APB RESPONSE
# [COVER] Successful APB transfer observed
# [1495000] DRV | READ  | PSELx=01 | PSTRB=0000 |PADDR=0xe0 | PWDATA=0x0 | PRDATA=0x0
# [1495000][READ][MON-ACCESS] PADDR=0xe0 PSELx=01 PRDATA=0x0
# [1495000][SB-PASS] PSELx=01 ADDR=0xe0 IDX=56 EXP=0x0 ACT=0x0
# [1515000][MON-SETUP] PADDR=0x71 W=0 PSELx=01
# [PASS] PENABLE protocol OK
# [PASS] Valid address response OK
# [COVER] Successful APB transfer observed
# [PASS] PREADY access phase OK
# [PASS] VALID APB RESPONSE
# [1535000] DRV | READ  | PSELx=01 | PSTRB=0000 |PADDR=0x71 | PWDATA=0x0 | PRDATA=0x0
# [1535000][READ][MON-ACCESS] PADDR=0x71 PSELx=01 PRDATA=0x0
# [1535000][SB-PASS] PSELx=01 ADDR=0x71 IDX=28 EXP=0x0 ACT=0x0
# [1555000][MON-SETUP] PADDR=0x45 W=1 PSELx=01
# [PASS] PENABLE protocol OK
# [PASS] Valid address response OK
# [COVER] Successful APB transfer observed
# [PASS] PREADY access phase OK
# [PASS] VALID APB RESPONSE
# [1575000] DRV | WRITE | PSELx=01 | PSTRB=1011 |PADDR=0x45 | PWDATA=0x11 | PRDATA=0x0
# [1575000][WRITE][MON-ACCESS] PADDR=0x45 PSELx=01 PWDATA=0x11
# [1575000][SB-WRITE][S0] ADDR=0x45 IDX=17 DATA=0x11
# [TEST] TIMEOUT reached
# 
# =============== SCOREBOARD SUMMARY ===============
#  Transactions : 30
#  Writes       : 13
#  Reads        : 17
#  Errors       : 0
#  Pass Rate    : 100.00%
#  RESULT       : PASS ✅
# Coverage APB with ADDR and SELx = 16.67 %
# Coverage APB with WRITE/READ = 100.00 %
# Coverage PSTRB = 100.00 %
# ==================================================
# 
# ** Note: $finish    : ./TB/test.sv(117)
#    Time: 2 us  Iteration: 1  Instance: /apb_tb_top/t1
# Break in Module apb_tb_top at ./TB/interface.sv line 24
#  coverage save -onexit RAND_ADDR.ucdb
# 
