# Saving coverage database on exit...
# End time: 10:32:56 on Jul 20,2026, Elapsed time: 0:00:04
# Errors: 0, Warnings: 0
# vsim -c -coverage work.apb_tb_top "+TESTNAME=WAITING_STATE" -onfinish final -do "run -all; coverage save -onexit WAITING_STATE.ucdb;" 
# Start time: 10:32:56 on Jul 20,2026
# ** Note: (vsim-8009) Loading existing optimized design _opt
# Loading sv_std.std
# Loading work.testcase_pkg(fast)
# Loading work.testbench_sv_unit(fast)
# Loading work.apb_tb_top(fast)
# Loading work.apb_test(fast)
# Loading work.apb_checker(fast)
# Loading work.apb_if(fast)
# run -all
# [TEST] TESTNAME=WAITING_STATE TIMEOUT=2000
# [0] TRANS | WRITE | PSELx=10 | PSTRB=1010 |PADDR=0x80000001 | PWDATA=0x21 | PRDATA=0x0
# [0] TRANS | READ  | PSELx=01 | PSTRB=0000 |PADDR=0x1 | PWDATA=0x0 | PRDATA=0x0
# [0] TRANS | READ  | PSELx=10 | PSTRB=0000 |PADDR=0x80000002 | PWDATA=0x0 | PRDATA=0x0
# [0] TRANS | READ  | PSELx=01 | PSTRB=0000 |PADDR=0x6 | PWDATA=0x0 | PRDATA=0x0
# [0] TRANS | READ  | PSELx=10 | PSTRB=0000 |PADDR=0x80000006 | PWDATA=0x0 | PRDATA=0x0
# [0] TRANS | READ  | PSELx=01 | PSTRB=0000 |PADDR=0x6 | PWDATA=0x0 | PRDATA=0x0
# [0] TRANS | WRITE | PSELx=10 | PSTRB=0110 |PADDR=0x80000001 | PWDATA=0xf | PRDATA=0x0
# [0] TRANS | WRITE | PSELx=01 | PSTRB=0111 |PADDR=0x2 | PWDATA=0x77 | PRDATA=0x0
# [0] TRANS | WRITE | PSELx=01 | PSTRB=0111 |PADDR=0x6 | PWDATA=0x99 | PRDATA=0x0
# [0] TRANS | WRITE | PSELx=10 | PSTRB=0010 |PADDR=0x80000006 | PWDATA=0x53 | PRDATA=0x0
# [0] TRANS | WRITE | PSELx=10 | PSTRB=0011 |PADDR=0x80000001 | PWDATA=0x60 | PRDATA=0x0
# [0] TRANS | READ  | PSELx=10 | PSTRB=0000 |PADDR=0x80000001 | PWDATA=0x0 | PRDATA=0x0
# [0] TRANS | READ  | PSELx=01 | PSTRB=0000 |PADDR=0x2 | PWDATA=0x0 | PRDATA=0x0
# [0] TRANS | READ  | PSELx=01 | PSTRB=0000 |PADDR=0x2 | PWDATA=0x0 | PRDATA=0x0
# [0] TRANS | WRITE | PSELx=01 | PSTRB=0101 |PADDR=0x1 | PWDATA=0xf3 | PRDATA=0x0
# [0] TRANS | WRITE | PSELx=10 | PSTRB=1001 |PADDR=0x80000002 | PWDATA=0xef | PRDATA=0x0
# [0] TRANS | READ  | PSELx=01 | PSTRB=0000 |PADDR=0x2 | PWDATA=0x0 | PRDATA=0x0
# [0] TRANS | WRITE | PSELx=10 | PSTRB=1110 |PADDR=0x80000002 | PWDATA=0xc5 | PRDATA=0x0
# [0] TRANS | READ  | PSELx=10 | PSTRB=0000 |PADDR=0x80000006 | PWDATA=0x0 | PRDATA=0x0
# [0] TRANS | READ  | PSELx=01 | PSTRB=0000 |PADDR=0x6 | PWDATA=0x0 | PRDATA=0x0
# [0] TRANS | WRITE | PSELx=01 | PSTRB=0011 |PADDR=0x6 | PWDATA=0xae | PRDATA=0x0
# [0] TRANS | WRITE | PSELx=01 | PSTRB=0010 |PADDR=0x1 | PWDATA=0x14 | PRDATA=0x0
# [0] TRANS | READ  | PSELx=01 | PSTRB=0000 |PADDR=0x6 | PWDATA=0x0 | PRDATA=0x0
# [0] TRANS | READ  | PSELx=10 | PSTRB=0000 |PADDR=0x80000002 | PWDATA=0x0 | PRDATA=0x0
# [0] TRANS | READ  | PSELx=10 | PSTRB=0000 |PADDR=0x80000001 | PWDATA=0x0 | PRDATA=0x0
# [0] TRANS | READ  | PSELx=10 | PSTRB=0000 |PADDR=0x80000006 | PWDATA=0x0 | PRDATA=0x0
# [0] TRANS | WRITE | PSELx=01 | PSTRB=1111 |PADDR=0x2 | PWDATA=0x74 | PRDATA=0x0
# [0] TRANS | READ  | PSELx=01 | PSTRB=0000 |PADDR=0x2 | PWDATA=0x0 | PRDATA=0x0
# [0] TRANS | READ  | PSELx=01 | PSTRB=0000 |PADDR=0x6 | PWDATA=0x0 | PRDATA=0x0
# [0] TRANS | WRITE | PSELx=01 | PSTRB=1011 |PADDR=0x1 | PWDATA=0x11 | PRDATA=0x0
# [235000][MON-SETUP] PADDR=0x80000001 W=1 PSELx=10
# [PASS] PENABLE protocol OK
# [PASS] Valid address response OK
# [COVER] Successful APB transfer observed
# [PASS] PREADY access phase OK
# [PASS] VALID APB RESPONSE
# [255000] DRV | WRITE | PSELx=10 | PSTRB=1010 |PADDR=0x80000001 | PWDATA=0x21 | PRDATA=0x0
# [255000][WRITE][MON-ACCESS] PADDR=0x80000001 PSELx=10 PWDATA=0x21
# [255000][SB-WRITE][S1] ADDR=0x80000001 IDX=0 DATA=0x21
# [275000][MON-SETUP] PADDR=0x1 W=0 PSELx=01
# [PASS] PENABLE protocol OK
# [PASS] Valid address response OK
# [COVER] Successful APB transfer observed
# [PASS] PREADY access phase OK
# [PASS] VALID APB RESPONSE
# [295000] DRV | READ  | PSELx=01 | PSTRB=0000 |PADDR=0x1 | PWDATA=0x0 | PRDATA=0x0
# [295000][READ][MON-ACCESS] PADDR=0x1 PSELx=01 PRDATA=0x0
# [295000][SB-PASS] PSELx=01 ADDR=0x1 IDX=0 EXP=0x0 ACT=0x0
# [315000][MON-SETUP] PADDR=0x80000002 W=0 PSELx=10
# [PASS] PENABLE protocol OK
# [PASS] PREADY access phase OK
# [PASS] Valid address response OK
# [COVER] Successful APB transfer observed
# [PASS] VALID APB RESPONSE
# [345000] DRV | READ  | PSELx=10 | PSTRB=0000 |PADDR=0x80000002 | PWDATA=0x0 | PRDATA=0x0
# [345000][READ][MON-ACCESS] PADDR=0x80000002 PSELx=10 PRDATA=0x0
# [345000][SB-PASS] PSELx=10 ADDR=0x80000002 IDX=0 EXP=0x0 ACT=0x0
# [365000][MON-SETUP] PADDR=0x6 W=0 PSELx=01
# [PASS] PENABLE protocol OK
# [PASS] PREADY access phase OK
# [PASS] Valid address response OK
# [COVER] Successful APB transfer observed
# [PASS] VALID APB RESPONSE
# [395000] DRV | READ  | PSELx=01 | PSTRB=0000 |PADDR=0x6 | PWDATA=0x0 | PRDATA=0x0
# [395000][READ][MON-ACCESS] PADDR=0x6 PSELx=01 PRDATA=0x0
# [395000][SB-PASS] PSELx=01 ADDR=0x6 IDX=1 EXP=0x0 ACT=0x0
# [415000][MON-SETUP] PADDR=0x80000006 W=0 PSELx=10
# [PASS] PENABLE protocol OK
# [PASS] PREADY access phase OK
# [PASS] Valid address response OK
# [COVER] Successful APB transfer observed
# [PASS] VALID APB RESPONSE
# [445000] DRV | READ  | PSELx=10 | PSTRB=0000 |PADDR=0x80000006 | PWDATA=0x0 | PRDATA=0x0
# [445000][READ][MON-ACCESS] PADDR=0x80000006 PSELx=10 PRDATA=0x0
# [445000][SB-PASS] PSELx=10 ADDR=0x80000006 IDX=1 EXP=0x0 ACT=0x0
# [465000][MON-SETUP] PADDR=0x6 W=0 PSELx=01
# [PASS] PENABLE protocol OK
# [PASS] PREADY access phase OK
# [PASS] Valid address response OK
# [COVER] Successful APB transfer observed
# [PASS] VALID APB RESPONSE
# [495000] DRV | READ  | PSELx=01 | PSTRB=0000 |PADDR=0x6 | PWDATA=0x0 | PRDATA=0x0
# [495000][READ][MON-ACCESS] PADDR=0x6 PSELx=01 PRDATA=0x0
# [495000][SB-PASS] PSELx=01 ADDR=0x6 IDX=1 EXP=0x0 ACT=0x0
# [515000][MON-SETUP] PADDR=0x80000001 W=1 PSELx=10
# [PASS] PENABLE protocol OK
# [PASS] Valid address response OK
# [COVER] Successful APB transfer observed
# [PASS] PREADY access phase OK
# [PASS] VALID APB RESPONSE
# [535000] DRV | WRITE | PSELx=10 | PSTRB=0110 |PADDR=0x80000001 | PWDATA=0xf | PRDATA=0x0
# [535000][WRITE][MON-ACCESS] PADDR=0x80000001 PSELx=10 PWDATA=0xf
# [535000][SB-WRITE][S1] ADDR=0x80000001 IDX=0 DATA=0xf
# [555000][MON-SETUP] PADDR=0x2 W=1 PSELx=01
# [PASS] PENABLE protocol OK
# [PASS] PREADY access phase OK
# [PASS] Valid address response OK
# [COVER] Successful APB transfer observed
# [PASS] VALID APB RESPONSE
# [585000] DRV | WRITE | PSELx=01 | PSTRB=0111 |PADDR=0x2 | PWDATA=0x77 | PRDATA=0x0
# [585000][WRITE][MON-ACCESS] PADDR=0x2 PSELx=01 PWDATA=0x77
# [585000][SB-WRITE][S0] ADDR=0x2 IDX=0 DATA=0x77
# [605000][MON-SETUP] PADDR=0x6 W=1 PSELx=01
# [PASS] PENABLE protocol OK
# [PASS] PREADY access phase OK
# [PASS] Valid address response OK
# [COVER] Successful APB transfer observed
# [PASS] VALID APB RESPONSE
# [635000] DRV | WRITE | PSELx=01 | PSTRB=0111 |PADDR=0x6 | PWDATA=0x99 | PRDATA=0x0
# [635000][WRITE][MON-ACCESS] PADDR=0x6 PSELx=01 PWDATA=0x99
# [635000][SB-WRITE][S0] ADDR=0x6 IDX=1 DATA=0x99
# [655000][MON-SETUP] PADDR=0x80000006 W=1 PSELx=10
# [PASS] PENABLE protocol OK
# [PASS] PREADY access phase OK
# [PASS] Valid address response OK
# [COVER] Successful APB transfer observed
# [PASS] VALID APB RESPONSE
# [685000] DRV | WRITE | PSELx=10 | PSTRB=0010 |PADDR=0x80000006 | PWDATA=0x53 | PRDATA=0x0
# [685000][WRITE][MON-ACCESS] PADDR=0x80000006 PSELx=10 PWDATA=0x53
# [685000][SB-WRITE][S1] ADDR=0x80000006 IDX=1 DATA=0x53
# [705000][MON-SETUP] PADDR=0x80000001 W=1 PSELx=10
# [PASS] PENABLE protocol OK
# [PASS] Valid address response OK
# [COVER] Successful APB transfer observed
# [PASS] PREADY access phase OK
# [PASS] VALID APB RESPONSE
# [725000] DRV | WRITE | PSELx=10 | PSTRB=0011 |PADDR=0x80000001 | PWDATA=0x60 | PRDATA=0x0
# [725000][WRITE][MON-ACCESS] PADDR=0x80000001 PSELx=10 PWDATA=0x60
# [725000][SB-WRITE][S1] ADDR=0x80000001 IDX=0 DATA=0x60
# [745000][MON-SETUP] PADDR=0x80000001 W=0 PSELx=10
# [PASS] PENABLE protocol OK
# [PASS] Valid address response OK
# [COVER] Successful APB transfer observed
# [PASS] PREADY access phase OK
# [PASS] VALID APB RESPONSE
# [765000] DRV | READ  | PSELx=10 | PSTRB=0000 |PADDR=0x80000001 | PWDATA=0x0 | PRDATA=0x60
# [765000][READ][MON-ACCESS] PADDR=0x80000001 PSELx=10 PRDATA=0x60
# [765000][SB-PASS] PSELx=10 ADDR=0x80000001 IDX=0 EXP=0x60 ACT=0x60
# [785000][MON-SETUP] PADDR=0x2 W=0 PSELx=01
# [PASS] PENABLE protocol OK
# [PASS] PREADY access phase OK
# [PASS] Valid address response OK
# [COVER] Successful APB transfer observed
# [PASS] VALID APB RESPONSE
# [815000] DRV | READ  | PSELx=01 | PSTRB=0000 |PADDR=0x2 | PWDATA=0x0 | PRDATA=0x77
# [815000][READ][MON-ACCESS] PADDR=0x2 PSELx=01 PRDATA=0x77
# [815000][SB-PASS] PSELx=01 ADDR=0x2 IDX=0 EXP=0x77 ACT=0x77
# [835000][MON-SETUP] PADDR=0x2 W=0 PSELx=01
# [PASS] PENABLE protocol OK
# [PASS] PREADY access phase OK
# [PASS] Valid address response OK
# [COVER] Successful APB transfer observed
# [PASS] VALID APB RESPONSE
# [865000] DRV | READ  | PSELx=01 | PSTRB=0000 |PADDR=0x2 | PWDATA=0x0 | PRDATA=0x77
# [865000][READ][MON-ACCESS] PADDR=0x2 PSELx=01 PRDATA=0x77
# [865000][SB-PASS] PSELx=01 ADDR=0x2 IDX=0 EXP=0x77 ACT=0x77
# [885000][MON-SETUP] PADDR=0x1 W=1 PSELx=01
# [PASS] PENABLE protocol OK
# [PASS] Valid address response OK
# [COVER] Successful APB transfer observed
# [PASS] PREADY access phase OK
# [PASS] VALID APB RESPONSE
# [905000] DRV | WRITE | PSELx=01 | PSTRB=0101 |PADDR=0x1 | PWDATA=0xf3 | PRDATA=0x0
# [905000][WRITE][MON-ACCESS] PADDR=0x1 PSELx=01 PWDATA=0xf3
# [905000][SB-WRITE][S0] ADDR=0x1 IDX=0 DATA=0xf3
# [925000][MON-SETUP] PADDR=0x80000002 W=1 PSELx=10
# [PASS] PENABLE protocol OK
# [PASS] PREADY access phase OK
# [PASS] Valid address response OK
# [COVER] Successful APB transfer observed
# [PASS] VALID APB RESPONSE
# [955000] DRV | WRITE | PSELx=10 | PSTRB=1001 |PADDR=0x80000002 | PWDATA=0xef | PRDATA=0x0
# [955000][WRITE][MON-ACCESS] PADDR=0x80000002 PSELx=10 PWDATA=0xef
# [955000][SB-WRITE][S1] ADDR=0x80000002 IDX=0 DATA=0xef
# [975000][MON-SETUP] PADDR=0x2 W=0 PSELx=01
# [PASS] PENABLE protocol OK
# [PASS] PREADY access phase OK
# [PASS] Valid address response OK
# [COVER] Successful APB transfer observed
# [PASS] VALID APB RESPONSE
# [1005000] DRV | READ  | PSELx=01 | PSTRB=0000 |PADDR=0x2 | PWDATA=0x0 | PRDATA=0xf3
# [1005000][READ][MON-ACCESS] PADDR=0x2 PSELx=01 PRDATA=0xf3
# [1005000][SB-PASS] PSELx=01 ADDR=0x2 IDX=0 EXP=0xf3 ACT=0xf3
# [1025000][MON-SETUP] PADDR=0x80000002 W=1 PSELx=10
# [PASS] PENABLE protocol OK
# [PASS] PREADY access phase OK
# [PASS] Valid address response OK
# [COVER] Successful APB transfer observed
# [PASS] VALID APB RESPONSE
# [1055000] DRV | WRITE | PSELx=10 | PSTRB=1110 |PADDR=0x80000002 | PWDATA=0xc5 | PRDATA=0x0
# [1055000][WRITE][MON-ACCESS] PADDR=0x80000002 PSELx=10 PWDATA=0xc5
# [1055000][SB-WRITE][S1] ADDR=0x80000002 IDX=0 DATA=0xc5
# [1075000][MON-SETUP] PADDR=0x80000006 W=0 PSELx=10
# [PASS] PENABLE protocol OK
# [PASS] PREADY access phase OK
# [PASS] Valid address response OK
# [COVER] Successful APB transfer observed
# [PASS] VALID APB RESPONSE
# [1105000] DRV | READ  | PSELx=10 | PSTRB=0000 |PADDR=0x80000006 | PWDATA=0x0 | PRDATA=0x0
# [1105000][READ][MON-ACCESS] PADDR=0x80000006 PSELx=10 PRDATA=0x0
# [1105000][SB-PASS] PSELx=10 ADDR=0x80000006 IDX=1 EXP=0x0 ACT=0x0
# [1125000][MON-SETUP] PADDR=0x6 W=0 PSELx=01
# [PASS] PENABLE protocol OK
# [PASS] PREADY access phase OK
# [PASS] Valid address response OK
# [COVER] Successful APB transfer observed
# [PASS] VALID APB RESPONSE
# [1155000] DRV | READ  | PSELx=01 | PSTRB=0000 |PADDR=0x6 | PWDATA=0x0 | PRDATA=0x99
# [1155000][READ][MON-ACCESS] PADDR=0x6 PSELx=01 PRDATA=0x99
# [1155000][SB-PASS] PSELx=01 ADDR=0x6 IDX=1 EXP=0x99 ACT=0x99
# [1175000][MON-SETUP] PADDR=0x6 W=1 PSELx=01
# [PASS] PENABLE protocol OK
# [PASS] PREADY access phase OK
# [PASS] Valid address response OK
# [COVER] Successful APB transfer observed
# [PASS] VALID APB RESPONSE
# [1205000] DRV | WRITE | PSELx=01 | PSTRB=0011 |PADDR=0x6 | PWDATA=0xae | PRDATA=0x0
# [1205000][WRITE][MON-ACCESS] PADDR=0x6 PSELx=01 PWDATA=0xae
# [1205000][SB-WRITE][S0] ADDR=0x6 IDX=1 DATA=0xae
# [1225000][MON-SETUP] PADDR=0x1 W=1 PSELx=01
# [PASS] PENABLE protocol OK
# [PASS] Valid address response OK
# [COVER] Successful APB transfer observed
# [PASS] PREADY access phase OK
# [PASS] VALID APB RESPONSE
# [1245000] DRV | WRITE | PSELx=01 | PSTRB=0010 |PADDR=0x1 | PWDATA=0x14 | PRDATA=0x0
# [1245000][WRITE][MON-ACCESS] PADDR=0x1 PSELx=01 PWDATA=0x14
# [1245000][SB-WRITE][S0] ADDR=0x1 IDX=0 DATA=0x14
# [1265000][MON-SETUP] PADDR=0x6 W=0 PSELx=01
# [PASS] PENABLE protocol OK
# [PASS] PREADY access phase OK
# [PASS] Valid address response OK
# [COVER] Successful APB transfer observed
# [PASS] VALID APB RESPONSE
# [1295000] DRV | READ  | PSELx=01 | PSTRB=0000 |PADDR=0x6 | PWDATA=0x0 | PRDATA=0xae
# [1295000][READ][MON-ACCESS] PADDR=0x6 PSELx=01 PRDATA=0xae
# [1295000][SB-PASS] PSELx=01 ADDR=0x6 IDX=1 EXP=0xae ACT=0xae
# [1315000][MON-SETUP] PADDR=0x80000002 W=0 PSELx=10
# [PASS] PENABLE protocol OK
# [PASS] PREADY access phase OK
# [PASS] Valid address response OK
# [COVER] Successful APB transfer observed
# [PASS] VALID APB RESPONSE
# [1345000] DRV | READ  | PSELx=10 | PSTRB=0000 |PADDR=0x80000002 | PWDATA=0x0 | PRDATA=0xef
# [1345000][READ][MON-ACCESS] PADDR=0x80000002 PSELx=10 PRDATA=0xef
# [1345000][SB-PASS] PSELx=10 ADDR=0x80000002 IDX=0 EXP=0xef ACT=0xef
# [1365000][MON-SETUP] PADDR=0x80000001 W=0 PSELx=10
# [PASS] PENABLE protocol OK
# [PASS] Valid address response OK
# [COVER] Successful APB transfer observed
# [PASS] PREADY access phase OK
# [PASS] VALID APB RESPONSE
# [1385000] DRV | READ  | PSELx=10 | PSTRB=0000 |PADDR=0x80000001 | PWDATA=0x0 | PRDATA=0xef
# [1385000][READ][MON-ACCESS] PADDR=0x80000001 PSELx=10 PRDATA=0xef
# [1385000][SB-PASS] PSELx=10 ADDR=0x80000001 IDX=0 EXP=0xef ACT=0xef
# [1405000][MON-SETUP] PADDR=0x80000006 W=0 PSELx=10
# [PASS] PENABLE protocol OK
# [PASS] PREADY access phase OK
# [PASS] Valid address response OK
# [COVER] Successful APB transfer observed
# [PASS] VALID APB RESPONSE
# [1435000] DRV | READ  | PSELx=10 | PSTRB=0000 |PADDR=0x80000006 | PWDATA=0x0 | PRDATA=0x0
# [1435000][READ][MON-ACCESS] PADDR=0x80000006 PSELx=10 PRDATA=0x0
# [1435000][SB-PASS] PSELx=10 ADDR=0x80000006 IDX=1 EXP=0x0 ACT=0x0
# [1455000][MON-SETUP] PADDR=0x2 W=1 PSELx=01
# [PASS] PENABLE protocol OK
# [PASS] PREADY access phase OK
# [PASS] Valid address response OK
# [COVER] Successful APB transfer observed
# [PASS] VALID APB RESPONSE
# [1485000] DRV | WRITE | PSELx=01 | PSTRB=1111 |PADDR=0x2 | PWDATA=0x74 | PRDATA=0x0
# [1485000][WRITE][MON-ACCESS] PADDR=0x2 PSELx=01 PWDATA=0x74
# [1485000][SB-WRITE][S0] ADDR=0x2 IDX=0 DATA=0x74
# [1505000][MON-SETUP] PADDR=0x2 W=0 PSELx=01
# [PASS] PENABLE protocol OK
# [PASS] PREADY access phase OK
# [PASS] Valid address response OK
# [COVER] Successful APB transfer observed
# [PASS] VALID APB RESPONSE
# [1535000] DRV | READ  | PSELx=01 | PSTRB=0000 |PADDR=0x2 | PWDATA=0x0 | PRDATA=0x74
# [1535000][READ][MON-ACCESS] PADDR=0x2 PSELx=01 PRDATA=0x74
# [1535000][SB-PASS] PSELx=01 ADDR=0x2 IDX=0 EXP=0x74 ACT=0x74
# [1555000][MON-SETUP] PADDR=0x6 W=0 PSELx=01
# [PASS] PENABLE protocol OK
# [PASS] PREADY access phase OK
# [PASS] Valid address response OK
# [COVER] Successful APB transfer observed
# [PASS] VALID APB RESPONSE
# [1585000] DRV | READ  | PSELx=01 | PSTRB=0000 |PADDR=0x6 | PWDATA=0x0 | PRDATA=0xae
# [1585000][READ][MON-ACCESS] PADDR=0x6 PSELx=01 PRDATA=0xae
# [1585000][SB-PASS] PSELx=01 ADDR=0x6 IDX=1 EXP=0xae ACT=0xae
# [1605000][MON-SETUP] PADDR=0x1 W=1 PSELx=01
# [PASS] PENABLE protocol OK
# [PASS] Valid address response OK
# [COVER] Successful APB transfer observed
# [PASS] PREADY access phase OK
# [PASS] VALID APB RESPONSE
# [1625000] DRV | WRITE | PSELx=01 | PSTRB=1011 |PADDR=0x1 | PWDATA=0x11 | PRDATA=0x0
# [1625000][WRITE][MON-ACCESS] PADDR=0x1 PSELx=01 PWDATA=0x11
# [1625000][SB-WRITE][S0] ADDR=0x1 IDX=0 DATA=0x11
# [TEST] TIMEOUT reached
# 
# =============== SCOREBOARD SUMMARY ===============
#  Transactions : 30
#  Writes       : 13
#  Reads        : 17
#  Errors       : 0
#  Pass Rate    : 100.00%
#  RESULT       : PASS ✅
# Coverage APB with ADDR and SELx = 55.56 %
# Coverage APB with WRITE/READ = 100.00 %
# Coverage PSTRB = 100.00 %
# ==================================================
# 
# ** Note: $finish    : ./TB/test.sv(117)
#    Time: 2 us  Iteration: 1  Instance: /apb_tb_top/t1
# Break in Module apb_tb_top at ./TB/interface.sv line 24
#  coverage save -onexit WAITING_STATE.ucdb
# 
