  CREATE_STREAM @0 {NAME:apb_master_full_strobes_sequences T:TVM SCOPE:uvm_test_top.tb.master_env.agent.sequencer STREAM:1}
BEGIN @0 {TXH:2 STREAM:1 NAME:apb_master_full_strobes_sequences TIME=0  TYPE="Begin_No_Parent, Link" LABEL:"" DESC=""}
BEGIN @25 {TXH:3 STREAM:1 NAME:req TIME=0  TYPE="Begin_End, Link" LABEL:"" DESC=""}
  LINK @25 {TXH1:2 TXH2:3 RELATION=child}
  CREATE_STREAM @35 {NAME:Driver_APB_Master T:TVM SCOPE:uvm_test_top.tb.master_env.agent.driver STREAM:4}
BEGIN @35 {TXH:5 STREAM:4 NAME:req TIME=0  TYPE="Begin_End, Link" LABEL:"" DESC=""}
  LINK @35 {TXH1:2 TXH2:5 RELATION=child}
  CREATE_STREAM @85 {NAME:Monitor_APB_Master T:TVM SCOPE:uvm_test_top.tb.master_env.agent.monitor STREAM:6}
BEGIN @85 {TXH:7 STREAM:6 NAME:apb_master_pkt TIME=0  TYPE="Begin_No_Parent, Link" LABEL:"" DESC=""}
  CREATE_STREAM @85 {NAME:Monitor_APB_Slave T:TVM SCOPE:uvm_test_top.tb.slave_env.agent.monitor STREAM:8}
BEGIN @85 {TXH:9 STREAM:8 NAME:apb_slave_pkt TIME=0  TYPE="Begin_No_Parent, Link" LABEL:"" DESC=""}
  SET_ATTR @95 {TXH:9 NAME:PSLVERR VALUE:X   RADIX:UVM_HEX BITS=1}
  SET_ATTR @95 {TXH:9 NAME:PREADY VALUE:X   RADIX:UVM_HEX BITS=1}
  SET_ATTR @95 {TXH:9 NAME:PRDATA VALUE:0   RADIX:UVM_HEX BITS=32}
  SET_ATTR @95 {TXH:9 NAME:PENABLE VALUE:X   RADIX:UVM_HEX BITS=1}
  SET_ATTR @95 {TXH:9 NAME:PWRITE VALUE:1   RADIX:UVM_HEX BITS=1}
  SET_ATTR @95 {TXH:9 NAME:PSELx VALUE:2   RADIX:UVM_BIN BITS=2}
  SET_ATTR @95 {TXH:9 NAME:PSTRB VALUE:15   RADIX:UVM_BIN BITS=4}
  SET_ATTR @95 {TXH:9 NAME:PADDR VALUE:2147484090   RADIX:UVM_HEX BITS=32}
  SET_ATTR @95 {TXH:9 NAME:PWDATA VALUE:245332913   RADIX:UVM_HEX BITS=32}
END @95 {TXH:9 TIME=0}
FREE @95 {TXH:9}
  SET_ATTR @95 {TXH:7 NAME:READ VALUE:0   RADIX:UVM_HEX BITS=1}
  SET_ATTR @95 {TXH:7 NAME:WRITE VALUE:1   RADIX:UVM_HEX BITS=1}
  SET_ATTR @95 {TXH:7 NAME:APB_WRITE_STRB VALUE:15   RADIX:UVM_BIN BITS=4}
  SET_ATTR @95 {TXH:7 NAME:APB_WRITE_PADDR VALUE:2147484090   RADIX:UVM_HEX BITS=32}
  SET_ATTR @95 {TXH:7 NAME:APB_WRITE_DATA VALUE:245332913   RADIX:UVM_HEX BITS=32}
  SET_ATTR @95 {TXH:7 NAME:APB_READ_PADDR VALUE:0   RADIX:UVM_HEX BITS=32}
  SET_ATTR @95 {TXH:7 NAME:APB_READ_DATA_OUT VALUE:0   RADIX:UVM_HEX BITS=32}
END @95 {TXH:7 TIME=0}
FREE @95 {TXH:7}
  SET_ATTR @145 {TXH:5 NAME:READ VALUE:X   RADIX:UVM_HEX BITS=1}
  SET_ATTR @145 {TXH:5 NAME:WRITE VALUE:X   RADIX:UVM_HEX BITS=1}
  SET_ATTR @145 {TXH:5 NAME:APB_WRITE_STRB VALUE:15   RADIX:UVM_BIN BITS=4}
  SET_ATTR @145 {TXH:5 NAME:APB_WRITE_PADDR VALUE:2147484090   RADIX:UVM_HEX BITS=32}
  SET_ATTR @145 {TXH:5 NAME:APB_WRITE_DATA VALUE:245332913   RADIX:UVM_HEX BITS=32}
  SET_ATTR @145 {TXH:5 NAME:APB_READ_PADDR VALUE:2147484090   RADIX:UVM_HEX BITS=32}
  SET_ATTR @145 {TXH:5 NAME:APB_READ_DATA_OUT VALUE:X   RADIX:UVM_HEX BITS=32}
END @145 {TXH:5 TIME=0}
FREE @145 {TXH:5}
  SET_ATTR @145 {TXH:3 NAME:READ VALUE:X   RADIX:UVM_HEX BITS=1}
  SET_ATTR @145 {TXH:3 NAME:WRITE VALUE:X   RADIX:UVM_HEX BITS=1}
  SET_ATTR @145 {TXH:3 NAME:APB_WRITE_STRB VALUE:15   RADIX:UVM_BIN BITS=4}
  SET_ATTR @145 {TXH:3 NAME:APB_WRITE_PADDR VALUE:2147484090   RADIX:UVM_HEX BITS=32}
  SET_ATTR @145 {TXH:3 NAME:APB_WRITE_DATA VALUE:245332913   RADIX:UVM_HEX BITS=32}
  SET_ATTR @145 {TXH:3 NAME:APB_READ_PADDR VALUE:2147484090   RADIX:UVM_HEX BITS=32}
  SET_ATTR @145 {TXH:3 NAME:APB_READ_DATA_OUT VALUE:X   RADIX:UVM_HEX BITS=32}
END @145 {TXH:3 TIME=0}
FREE @145 {TXH:3}
BEGIN @145 {TXH:10 STREAM:6 NAME:apb_master_pkt TIME=0  TYPE="Begin_No_Parent, Link" LABEL:"" DESC=""}
BEGIN @145 {TXH:11 STREAM:8 NAME:apb_slave_pkt TIME=0  TYPE="Begin_No_Parent, Link" LABEL:"" DESC=""}
END @145 {TXH:2 TIME=0}
FREE @145 {TXH:2}
  SET_ATTR @155 {TXH:11 NAME:PSLVERR VALUE:X   RADIX:UVM_HEX BITS=1}
  SET_ATTR @155 {TXH:11 NAME:PREADY VALUE:X   RADIX:UVM_HEX BITS=1}
  SET_ATTR @155 {TXH:11 NAME:PRDATA VALUE:245332913   RADIX:UVM_HEX BITS=32}
  SET_ATTR @155 {TXH:11 NAME:PENABLE VALUE:X   RADIX:UVM_HEX BITS=1}
  SET_ATTR @155 {TXH:11 NAME:PWRITE VALUE:0   RADIX:UVM_HEX BITS=1}
  SET_ATTR @155 {TXH:11 NAME:PSELx VALUE:2   RADIX:UVM_BIN BITS=2}
  SET_ATTR @155 {TXH:11 NAME:PSTRB VALUE:0   RADIX:UVM_BIN BITS=4}
  SET_ATTR @155 {TXH:11 NAME:PADDR VALUE:2147484090   RADIX:UVM_HEX BITS=32}
  SET_ATTR @155 {TXH:11 NAME:PWDATA VALUE:0   RADIX:UVM_HEX BITS=32}
END @155 {TXH:11 TIME=0}
FREE @155 {TXH:11}
  SET_ATTR @155 {TXH:10 NAME:READ VALUE:1   RADIX:UVM_HEX BITS=1}
  SET_ATTR @155 {TXH:10 NAME:WRITE VALUE:0   RADIX:UVM_HEX BITS=1}
  SET_ATTR @155 {TXH:10 NAME:APB_WRITE_STRB VALUE:0   RADIX:UVM_BIN BITS=4}
  SET_ATTR @155 {TXH:10 NAME:APB_WRITE_PADDR VALUE:2147484090   RADIX:UVM_HEX BITS=32}
  SET_ATTR @155 {TXH:10 NAME:APB_WRITE_DATA VALUE:245332913   RADIX:UVM_HEX BITS=32}
  SET_ATTR @155 {TXH:10 NAME:APB_READ_PADDR VALUE:2147484090   RADIX:UVM_HEX BITS=32}
  SET_ATTR @155 {TXH:10 NAME:APB_READ_DATA_OUT VALUE:245332913   RADIX:UVM_HEX BITS=32}
END @155 {TXH:10 TIME=0}
FREE @155 {TXH:10}
